
T2F58 000:308 SEGGER J-Link V5.10h Log File (0000ms, 0263ms total)
T2F58 000:308 DLL Compiled: Jan 21 2016 19:24:29 (0000ms, 0263ms total)
T2F58 000:308 Logging started @ 2018-11-03 20:43 (0001ms, 0264ms total)
T2F58 000:309 JLINK_SetWarnOutHandler(...) (0000ms, 0264ms total)
T2F58 000:309 JLINK_OpenEx(...)
Firmware: J-Link ARM-OB STM32 compiled Aug 22 2012 19:52:04
Hardware: V7.00
S/N: 20090928
Feature(s): RDI,FlashDL,FlashBP,JFlash,GDBFull  returns O.K. (0265ms, 0529ms total)
T2F58 000:574 JLINK_SetErrorOutHandler(...) (0000ms, 0529ms total)
T2F58 000:574 JLINK_ExecCommand("ProjectFile = "D:\VCU\VCU1.0\USER\JLinkSettings.ini"", ...)Device "STM32F429IG" selected.  returns 0x00 (0004ms, 0533ms total)
T2F58 000:578 JLINK_ExecCommand("Device = STM32F429IGTx", ...)Device "STM32F429IG" selected.  returns 0x00 (0004ms, 0537ms total)
T2F58 000:582 JLINK_ExecCommand("DisableConnectionTimeout", ...)  returns 0x01 (0000ms, 0537ms total)
T2F58 000:582 JLINK_GetHardwareVersion()  returns 0x11170 (0000ms, 0537ms total)
T2F58 000:582 JLINK_GetDLLVersion()  returns 51008 (0000ms, 0537ms total)
T2F58 000:582 JLINK_GetFirmwareString(...) (0000ms, 0537ms total)
T2F58 000:587 JLINK_GetDLLVersion()  returns 51008 (0000ms, 0537ms total)
T2F58 000:587 JLINK_GetCompileDateTime() (0000ms, 0537ms total)
T2F58 000:588 JLINK_GetFirmwareString(...) (0000ms, 0537ms total)
T2F58 000:589 JLINK_GetHardwareVersion()  returns 0x11170 (0000ms, 0537ms total)
T2F58 000:595 JLINK_TIF_Select(JLINKARM_TIF_SWD)  returns 0x00 (0001ms, 0538ms total)
T2F58 000:596 JLINK_SetSpeed(5000) (0001ms, 0539ms total)
T2F58 000:597 JLINK_GetId() >0x108 TIF>Found SWD-DP with ID 0x2BA01477 >0x0D TIF> >0x28 TIF> >0x0D TIF> >0x28 TIF> >0x0D TIF> >0x28 TIF> >0x0D TIF> >0x28 TIF> >0x0D TIF> >0x21 TIF> >0x0D TIF> >0x28 TIF> >0x0D TIF> >0x28 TIF> >0x0D TIF> >0x28 TIF> >0x0D TIF> >0x21 TIF> >0x0D TIF> >0x21 TIF> >0x0D TIF> >0x28 TIF> >0x0D TIF> >0x21 TIF> >0x0D TIF> >0x21 TIF> >0x0D TIF> >0x28 TIF> >0x0D TIF> >0x21 TIF> >0x0D TIF> >0x21 TIF> >0x0D TIF> >0x28 TIF> >0x0D TIF> >0x21 TIF> >0x0D TIF> >0x21 TIF> >0x0D TIF>
 >0x28 TIF> >0x0D TIF> >0x21 TIF> >0x0D TIF> >0x21 TIF> >0x108 TIF>Found SWD-DP with ID 0x2BA01477 >0x0D TIF> >0x28 TIF> >0x0D TIF> >0x28 TIF> >0x0D TIF> >0x28 TIF> >0x0D TIF> >0x28 TIF> >0x0D TIF> >0x21 TIF> >0x0D TIF> >0x28 TIF> >0x0D TIF> >0x28 TIF> >0x0D TIF> >0x21 TIF> >0x0D TIF> >0x21 TIF> >0x0D TIF> >0x21 TIF> >0x0D TIF> >0x28 TIF> >0x0D TIF> >0x28 TIF> >0x0D TIF> >0x28 TIF> >0x0D TIF> >0x21 TIF> >0x0D TIF> >0x21 TIF> >0x0D TIF> >0x28 TIF> >0x0D TIF> >0x21 TIF> >0x0D TIF> >0x21 TIF>
Found Cortex-M4 r0p1, Little endian. -- CPU_ReadMem(4 bytes @ 0xE000EDF0) -- CPU_ReadMem(4 bytes @ 0xE0002000)FPUnit: 6 code (BP) slots and 2 literal slots -- CPU_ReadMem(4 bytes @ 0xE000EDFC) -- CPU_ReadMem(4 bytes @ 0xE0001000) -- CPU_WriteMem(4 bytes @ 0xE0001000) -- CPU_ReadMem(4 bytes @ 0xE000ED88) -- CPU_WriteMem(4 bytes @ 0xE000ED88) -- CPU_ReadMem(4 bytes @ 0xE000ED88) -- CPU_WriteMem(4 bytes @ 0xE000ED88)CoreSight components:ROMTbl 0 @ E00FF000 -- CPU_ReadMem(16 bytes @ 0xE00FF000)
 -- CPU_ReadMem(16 bytes @ 0xE000EFF0) -- CPU_ReadMem(16 bytes @ 0xE000EFE0)ROMTbl 0 [0]: FFF0F000, CID: B105E00D, PID: 000BB00C SCS -- CPU_ReadMem(16 bytes @ 0xE0001FF0) -- CPU_ReadMem(16 bytes @ 0xE0001FE0)ROMTbl 0 [1]: FFF02000, CID: B105E00D, PID: 003BB002 DWT -- CPU_ReadMem(16 bytes @ 0xE0002FF0) -- CPU_ReadMem(16 bytes @ 0xE0002FE0)ROMTbl 0 [2]: FFF03000, CID: B105E00D, PID: 002BB003 FPB -- CPU_ReadMem(16 bytes @ 0xE0000FF0) -- CPU_ReadMem(16 bytes @ 0xE0000FE0)
ROMTbl 0 [3]: FFF01000, CID: B105E00D, PID: 003BB001 ITM -- CPU_ReadMem(16 bytes @ 0xE00FF010) -- CPU_ReadMem(16 bytes @ 0xE0040FF0) -- CPU_ReadMem(16 bytes @ 0xE0040FE0)ROMTbl 0 [4]: FFF41000, CID: B105900D, PID: 000BB9A1 TPIU -- CPU_ReadMem(16 bytes @ 0xE0041FF0) -- CPU_ReadMem(16 bytes @ 0xE0041FE0)ROMTbl 0 [5]: FFF42000, CID: B105900D, PID: 000BB925 ETM >0x0D TIF> >0x21 TIF>  returns 0x2BA01477 (0045ms, 0584ms total)
T2F58 000:642 JLINK_GetDLLVersion()  returns 51008 (0000ms, 0584ms total)
T2F58 000:642 JLINK_CORE_GetFound()  returns 0xE0000FF (0000ms, 0584ms total)
T2F58 000:642 JLINK_GetDebugInfo(0x100) -- Value=0xE00FF000  returns 0x00 (0000ms, 0584ms total)
T2F58 000:643 JLINK_GetDebugInfo(0x100) -- Value=0xE00FF000  returns 0x00 (0000ms, 0584ms total)
T2F58 000:643 JLINK_GetDebugInfo(0x101) -- Value=0xE0041000  returns 0x00 (0000ms, 0584ms total)
T2F58 000:643 JLINK_GetDebugInfo(0x102) -- Value=0x00000000  returns 0x00 (0000ms, 0584ms total)
T2F58 000:643 JLINK_GetDebugInfo(0x103) -- Value=0xE0040000  returns 0x00 (0000ms, 0584ms total)
T2F58 000:643 JLINK_GetDebugInfo(0x104) -- Value=0xE0000000  returns 0x00 (0000ms, 0584ms total)
T2F58 000:643 JLINK_GetDebugInfo(0x105) -- Value=0xE0001000  returns 0x00 (0000ms, 0584ms total)
T2F58 000:643 JLINK_GetDebugInfo(0x106) -- Value=0xE0002000  returns 0x00 (0000ms, 0584ms total)
T2F58 000:643 JLINK_GetDebugInfo(0x107) -- Value=0xE000E000  returns 0x00 (0000ms, 0584ms total)
T2F58 000:643 JLINK_GetDebugInfo(0x10C) -- Value=0xE000EDF0  returns 0x00 (0000ms, 0584ms total)
T2F58 000:643 JLINK_ReadMemU32(0xE000EF40, 0x0001 Items, ...) -- CPU is running -- CPU_ReadMem(4 bytes @ 0xE000EF40) - Data: 21 00 11 10  returns 0x01 (0001ms, 0585ms total)
T2F58 000:644 JLINK_ReadMemU32(0xE000EF44, 0x0001 Items, ...) -- CPU is running -- CPU_ReadMem(4 bytes @ 0xE000EF44) - Data: 11 00 00 11  returns 0x01 (0000ms, 0585ms total)
T2F58 000:644 JLINK_ReadMemU32(0xE000ED00, 0x0001 Items, ...) -- CPU is running -- CPU_ReadMem(4 bytes @ 0xE000ED00) - Data: 41 C2 0F 41  returns 0x01 (0001ms, 0586ms total)
T2F58 000:645 JLINK_SetResetType(JLINKARM_RESET_TYPE_NORMAL)  returns JLINKARM_RESET_TYPE_NORMAL (0000ms, 0586ms total)
T2F58 000:645 JLINK_Reset() -- CPU is running -- CPU_WriteMem(4 bytes @ 0xE000EDF0) -- CPU is running -- CPU_WriteMem(4 bytes @ 0xE000EDFC) >0x35 TIF> -- CPU is running -- CPU_WriteMem(4 bytes @ 0xE000ED0C) -- CPU is running -- CPU_ReadMem(4 bytes @ 0xE000EDF0) -- CPU is running -- CPU_ReadMem(4 bytes @ 0xE000EDF0) -- CPU is running -- CPU_WriteMem(4 bytes @ 0xE000EDF0) -- CPU is running -- CPU_WriteMem(4 bytes @ 0xE000EDFC) -- CPU is running -- CPU_ReadMem(4 bytes @ 0xE000EDF0)
 -- CPU_WriteMem(4 bytes @ 0xE0002000) -- CPU_ReadMem(4 bytes @ 0xE000EDFC) -- CPU_ReadMem(4 bytes @ 0xE0001000) (0019ms, 0605ms total)
T2F58 000:664 JLINK_ReadReg(R15 (PC))  returns 0x080001D0 (0000ms, 0605ms total)
T2F58 000:664 JLINK_ReadReg(XPSR)  returns 0x01000000 (0000ms, 0605ms total)
T2F58 000:664 JLINK_Halt()  returns 0x00 (0000ms, 0605ms total)
T2F58 000:664 JLINK_IsHalted()  returns TRUE (0000ms, 0605ms total)
T2F58 000:664 JLINK_ReadMemU32(0xE000EDF0, 0x0001 Items, ...) -- CPU_ReadMem(4 bytes @ 0xE000EDF0) - Data: 03 00 03 00  returns 0x01 (0001ms, 0606ms total)
T2F58 000:665 JLINK_WriteU32(0xE000EDF0, 0xA05F0003) -- CPU_WriteMem(4 bytes @ 0xE000EDF0)  returns 0x00 (0000ms, 0606ms total)
T2F58 000:665 JLINK_WriteU32(0xE000EDFC, 0x01000000) -- CPU_WriteMem(4 bytes @ 0xE000EDFC)  returns 0x00 (0001ms, 0607ms total)
T2F58 000:667 JLINK_GetHWStatus(...)  returns 0x00 (0000ms, 0607ms total)
T2F58 000:667 JLINK_GetNumBPUnits(Type = 0xFFFFFF00)  returns 0x06 (0000ms, 0607ms total)
T2F58 000:667 JLINK_GetNumBPUnits(Type = 0xF0)  returns 0x2000 (0000ms, 0607ms total)
T2F58 000:667 JLINK_GetNumWPUnits()  returns 0x04 (0000ms, 0607ms total)
T2F58 000:668 JLINK_GetSpeed()  returns 0xFA0 (0000ms, 0607ms total)
T2F58 000:668 JLINK_ReadMemU32(0xE000E004, 0x0001 Items, ...) -- CPU_ReadMem(4 bytes @ 0xE000E004) - Data: 02 00 00 00  returns 0x01 (0001ms, 0608ms total)
T2F58 000:669 JLINK_ReadMemU32(0xE000E004, 0x0001 Items, ...) -- CPU_ReadMem(4 bytes @ 0xE000E004) - Data: 02 00 00 00  returns 0x01 (0000ms, 0608ms total)
T2F58 000:669 JLINK_WriteMem(0xE0001000, 0x001C Bytes, ...) - Data: 01 00 00 00 00 00 00 00 00 00 00 00 00 00 00 00 ... -- CPU_WriteMem(28 bytes @ 0xE0001000)  returns 0x1C (0001ms, 0609ms total)
T2F58 000:670 JLINK_ReadMem (0xE0001000, 0x001C Bytes, ...) -- CPU_ReadMem(28 bytes @ 0xE0001000) - Data: 01 00 00 40 00 00 00 00 00 00 00 00 00 00 00 00 ...  returns 0x00 (0001ms, 0610ms total)
T2F58 000:671 JLINK_ReadReg(R15 (PC))  returns 0x080001D0 (0000ms, 0610ms total)
T2F58 000:671 JLINK_ReadReg(XPSR)  returns 0x01000000 (0000ms, 0610ms total)
T2F58 000:795 JLINK_SetResetType(JLINKARM_RESET_TYPE_NORMAL)  returns JLINKARM_RESET_TYPE_NORMAL (0000ms, 0610ms total)
T2F58 000:795 JLINK_Reset() -- CPU_WriteMem(4 bytes @ 0xE000EDF0) -- CPU_WriteMem(4 bytes @ 0xE000EDFC) >0x35 TIF> -- CPU_WriteMem(4 bytes @ 0xE000ED0C) -- CPU_ReadMem(4 bytes @ 0xE000EDF0) -- CPU_ReadMem(4 bytes @ 0xE000EDF0) -- CPU_WriteMem(4 bytes @ 0xE000EDF0) -- CPU_WriteMem(4 bytes @ 0xE000EDFC) -- CPU is running -- CPU_ReadMem(4 bytes @ 0xE000EDF0) -- CPU_WriteMem(4 bytes @ 0xE0002000) -- CPU_ReadMem(4 bytes @ 0xE000EDFC) -- CPU_ReadMem(4 bytes @ 0xE0001000) (0019ms, 0629ms total)
T2F58 000:814 JLINK_ReadReg(R15 (PC))  returns 0x080001D0 (0000ms, 0629ms total)
T2F58 000:814 JLINK_ReadReg(XPSR)  returns 0x01000000 (0000ms, 0629ms total)
T2F58 000:814 JLINK_ReadMem (0x080001D0, 0x003C Bytes, ...) -- CPU_ReadMem(128 bytes @ 0x080001C0) -- Updating C cache (128 bytes @ 0x080001C0) -- Read from C cache (60 bytes @ 0x080001D0) - Data: 0E 48 80 47 DF F8 38 00 01 68 41 F4 70 01 01 60 ...  returns 0x00 (0002ms, 0631ms total)
T2F58 001:056 JLINK_ReadMem (0x40026400, 0x00CC Bytes, ...) -- CPU_ReadMem(204 bytes @ 0x40026400) - Data: 00 00 00 00 00 00 00 00 00 00 00 00 00 00 00 00 ...  returns 0x00 (0003ms, 0634ms total)
T2F58 001:059 JLINK_ReadMem (0x400264CC, 0x0004 Bytes, ...) -- CPU_ReadMem(4 bytes @ 0x400264CC) - Data: 00 00 00 00  returns 0x00 (0000ms, 0634ms total)
T2F58 001:141 JLINK_ReadMem (0x40020000, 0x0014 Bytes, ...) -- CPU_ReadMem(20 bytes @ 0x40020000) - Data: 00 00 00 A8 00 00 00 A8 00 00 00 A8 00 00 00 A8 ...  returns 0x00 (0001ms, 0635ms total)
T2F58 001:142 JLINK_ReadMem (0x40020014, 0x0004 Bytes, ...) -- CPU_ReadMem(4 bytes @ 0x40020014) - Data: 00 00 00 A8  returns 0x00 (0001ms, 0636ms total)
T2F58 001:143 JLINK_ReadMem (0x4002001C, 0x0008 Bytes, ...) -- CPU_ReadMem(8 bytes @ 0x4002001C) - Data: 00 00 00 A8 00 00 00 A8  returns 0x00 (0000ms, 0636ms total)
T2F58 001:143 JLINK_ReadMem (0x40020024, 0x0004 Bytes, ...) -- CPU_ReadMem(4 bytes @ 0x40020024) - Data: 00 00 00 A8  returns 0x00 (0001ms, 0637ms total)
T2F58 001:223 JLINK_ReadMem (0x40023800, 0x0018 Bytes, ...) -- CPU_ReadMem(24 bytes @ 0x40023800) - Data: 83 80 00 00 10 30 00 24 00 00 00 00 00 00 00 00 ...  returns 0x00 (0001ms, 0638ms total)
T2F58 001:224 JLINK_ReadMem (0x40023818, 0x0004 Bytes, ...) -- CPU_ReadMem(4 bytes @ 0x40023818) - Data: 00 00 00 00  returns 0x00 (0000ms, 0638ms total)
T2F58 001:224 JLINK_ReadMem (0x40023820, 0x0004 Bytes, ...) -- CPU_ReadMem(4 bytes @ 0x40023820) - Data: 00 00 00 00  returns 0x00 (0001ms, 0639ms total)
T2F58 001:225 JLINK_ReadMem (0x40023824, 0x0004 Bytes, ...) -- CPU_ReadMem(4 bytes @ 0x40023824) - Data: 00 00 00 00  returns 0x00 (0000ms, 0639ms total)
T2F58 001:225 JLINK_ReadMem (0x40023830, 0x0008 Bytes, ...) -- CPU_ReadMem(8 bytes @ 0x40023830) - Data: 00 00 10 00 00 00 00 00  returns 0x00 (0001ms, 0640ms total)
T2F58 001:226 JLINK_ReadMem (0x40023838, 0x0004 Bytes, ...) -- CPU_ReadMem(4 bytes @ 0x40023838) - Data: 00 00 00 00  returns 0x00 (0000ms, 0640ms total)
T2F58 001:226 JLINK_ReadMem (0x40023840, 0x0004 Bytes, ...) -- CPU_ReadMem(4 bytes @ 0x40023840) - Data: 00 00 00 00  returns 0x00 (0001ms, 0641ms total)
T2F58 001:227 JLINK_ReadMem (0x40023844, 0x0004 Bytes, ...) -- CPU_ReadMem(4 bytes @ 0x40023844) - Data: 00 00 00 00  returns 0x00 (0000ms, 0641ms total)
T2F58 001:227 JLINK_ReadMem (0x40023850, 0x0008 Bytes, ...) -- CPU_ReadMem(8 bytes @ 0x40023850) - Data: FF 97 EF 7E F1 00 00 00  returns 0x00 (0001ms, 0642ms total)
T2F58 001:228 JLINK_ReadMem (0x40023858, 0x0004 Bytes, ...) -- CPU_ReadMem(4 bytes @ 0x40023858) - Data: 01 00 00 00  returns 0x00 (0000ms, 0642ms total)
T2F58 001:228 JLINK_ReadMem (0x40023860, 0x0004 Bytes, ...) -- CPU_ReadMem(4 bytes @ 0x40023860) - Data: FF C9 FE F6  returns 0x00 (0001ms, 0643ms total)
T2F58 001:229 JLINK_ReadMem (0x40023864, 0x0004 Bytes, ...) -- CPU_ReadMem(4 bytes @ 0x40023864) - Data: 33 7F 77 04  returns 0x00 (0000ms, 0643ms total)
T2F58 001:229 JLINK_ReadMem (0x40023870, 0x0004 Bytes, ...) -- CPU_ReadMem(4 bytes @ 0x40023870) - Data: 00 00 00 00  returns 0x00 (0001ms, 0644ms total)
T2F58 001:230 JLINK_ReadMem (0x40023874, 0x0004 Bytes, ...) -- CPU_ReadMem(4 bytes @ 0x40023874) - Data: 00 00 00 1E  returns 0x00 (0001ms, 0645ms total)
T2F58 001:231 JLINK_ReadMem (0x40023880, 0x000C Bytes, ...) -- CPU_ReadMem(12 bytes @ 0x40023880) - Data: 00 00 00 00 00 30 00 24 00 30 00 24  returns 0x00 (0000ms, 0645ms total)
T2F58 001:231 JLINK_ReadMem (0x4002388C, 0x0004 Bytes, ...) -- CPU_ReadMem(4 bytes @ 0x4002388C) - Data: 00 00 00 00  returns 0x00 (0001ms, 0646ms total)
T2F58 001:327 JLINK_ReadMem (0x40015000, 0x0020 Bytes, ...) -- CPU_ReadMem(32 bytes @ 0x40015000) - Data: 00 00 00 00 00 00 00 00 00 00 00 00 00 00 00 00 ...  returns 0x00 (0001ms, 0647ms total)
T2F58 001:328 JLINK_ReadMem (0x40015020, 0x0004 Bytes, ...) -- CPU_ReadMem(4 bytes @ 0x40015020) - Data: 00 00 00 00  returns 0x00 (0001ms, 0648ms total)
T2F58 004:458 JLINK_ReadMem (0x200001F8, 0x0004 Bytes, ...) -- CPU_ReadMem(64 bytes @ 0x200001C0) -- Updating C cache (64 bytes @ 0x200001C0) -- Read from C cache (4 bytes @ 0x200001F8) - Data: FF FF FF FF  returns 0x00 (0001ms, 0649ms total)
T2F58 004:470 JLINK_ReadMem (0x200000BE, 0x0002 Bytes, ...) -- CPU_ReadMem(64 bytes @ 0x20000080) -- Updating C cache (64 bytes @ 0x20000080) -- Read from C cache (2 bytes @ 0x200000BE) - Data: FF F7  returns 0x00 (0001ms, 0650ms total)
T2F58 004:482 JLINK_ReadMem (0x200000C0, 0x0002 Bytes, ...) -- CPU_ReadMem(64 bytes @ 0x200000C0) -- Updating C cache (64 bytes @ 0x200000C0) -- Read from C cache (2 bytes @ 0x200000C0) - Data: BB FF  returns 0x00 (0002ms, 0652ms total)
T2F58 004:525 JLINK_ReadMem (0x200009E2, 0x0012 Bytes, ...) -- CPU_ReadMem(64 bytes @ 0x200009C0) -- Updating C cache (64 bytes @ 0x200009C0) -- Read from C cache (18 bytes @ 0x200009E2) - Data: 00 00 00 00 00 00 00 00 00 00 00 00 00 00 00 00 ...  returns 0x00 (0001ms, 0653ms total)
T2F58 004:539 JLINK_ReadMem (0x2000000E, 0x0001 Bytes, ...) -- CPU_ReadMem(64 bytes @ 0x20000000) -- Updating C cache (64 bytes @ 0x20000000) -- Read from C cache (1 bytes @ 0x2000000E) - Data: 00  returns 0x00 (0001ms, 0654ms total)
T2F58 004:679 JLINK_ReadMem (0x200000BC, 0x0001 Bytes, ...) -- Read from C cache (1 bytes @ 0x200000BC) - Data: 30  returns 0x00 (0000ms, 0654ms total)
T2F58 004:857 JLINK_ReadMem (0x200001E0, 0x0004 Bytes, ...) -- Read from C cache (4 bytes @ 0x200001E0) - Data: FF FF FF FF  returns 0x00 (0000ms, 0654ms total)
T2F58 004:881 JLINK_ReadMem (0x200001E4, 0x0004 Bytes, ...) -- Read from C cache (4 bytes @ 0x200001E4) - Data: FF FF FF FF  returns 0x00 (0000ms, 0654ms total)
T2F58 004:889 JLINK_ReadMem (0x200001F0, 0x0004 Bytes, ...) -- Read from C cache (4 bytes @ 0x200001F0) - Data: FF FF FF FF  returns 0x00 (0000ms, 0654ms total)
T2F58 004:889 JLINK_ReadMem (0xFFFFFFFF, 0x0001 Bytes, ...) -- CPU_ReadMem(1 bytes @ 0xFFFFFFFF) - Data: 00  returns 0x00 (0001ms, 0655ms total)
T2F58 004:890 JLINK_ReadMem (0x00000000, 0x001F Bytes, ...) -- CPU_ReadMem(4 bytes @ 0x00000004) -- CPU_ReadMem(64 bytes @ 0x08000000) -- Updating C cache (64 bytes @ 0x08000000) -- Read from C cache (31 bytes @ 0x08000000) - Data: 68 B1 02 20 D1 01 00 08 57 46 00 08 7F 3F 00 08 ...  returns 0x00 (0002ms, 0657ms total)
T2F58 004:896 JLINK_ReadMem (0x20000080, 0x0004 Bytes, ...) -- Read from C cache (4 bytes @ 0x20000080) - Data: 70 47 37 48  returns 0x00 (0000ms, 0657ms total)
T2F58 004:949 JLINK_ReadMem (0x2000005A, 0x0001 Bytes, ...) -- CPU_ReadMem(64 bytes @ 0x20000040) -- Updating C cache (64 bytes @ 0x20000040) -- Read from C cache (1 bytes @ 0x2000005A) - Data: 42  returns 0x00 (0001ms, 0658ms total)
T2F58 004:956 JLINK_ReadMem (0x2000005B, 0x0001 Bytes, ...) -- Read from C cache (1 bytes @ 0x2000005B) - Data: 49  returns 0x00 (0000ms, 0658ms total)
T0834 005:180 JLINK_SetBPEx(Addr = 0x0800C3D4, Type = 0xFFFFFFF2)  returns 0x00000001 (0000ms, 0658ms total)
T0834 005:180 JLINK_Go() -- CPU_WriteMem(4 bytes @ 0xE0002000) -- CPU_ReadMem(4 bytes @ 0xE0001000) -- CPU_WriteMem(4 bytes @ 0xE0002008) -- CPU_WriteMem(4 bytes @ 0xE000200C) -- CPU_WriteMem(4 bytes @ 0xE0002010) -- CPU_WriteMem(4 bytes @ 0xE0002014) -- CPU_WriteMem(4 bytes @ 0xE0002018) -- CPU_WriteMem(4 bytes @ 0xE000201C) -- CPU_WriteMem(4 bytes @ 0xE0001004) (0005ms, 0663ms total)
T0834 005:286 JLINK_IsHalted()  returns TRUE (0003ms, 0666ms total)
T0834 005:289 JLINK_Halt()  returns 0x00 (0000ms, 0663ms total)
T0834 005:289 JLINK_IsHalted()  returns TRUE (0000ms, 0663ms total)
T0834 005:289 JLINK_IsHalted()  returns TRUE (0000ms, 0663ms total)
T0834 005:289 JLINK_IsHalted()  returns TRUE (0000ms, 0663ms total)
T0834 005:289 JLINK_ReadReg(R15 (PC))  returns 0x0800C3D4 (0000ms, 0663ms total)
T0834 005:289 JLINK_ReadReg(XPSR)  returns 0x61000000 (0000ms, 0663ms total)
T0834 005:289 JLINK_ClrBPEx(BPHandle = 0x00000001)  returns 0x00 (0000ms, 0663ms total)
T0834 005:289 JLINK_ReadMemU32(0xE000ED30, 0x0001 Items, ...) -- CPU_ReadMem(4 bytes @ 0xE000ED30) - Data: 03 00 00 00  returns 0x01 (0001ms, 0664ms total)
T0834 005:290 JLINK_ReadMemU32(0xE0001028, 0x0001 Items, ...) -- CPU_ReadMem(4 bytes @ 0xE0001028) - Data: 00 00 00 00  returns 0x01 (0000ms, 0664ms total)
T0834 005:290 JLINK_ReadMemU32(0xE0001038, 0x0001 Items, ...) -- CPU_ReadMem(4 bytes @ 0xE0001038) - Data: 00 02 00 00  returns 0x01 (0001ms, 0665ms total)
T0834 005:291 JLINK_ReadMemU32(0xE0001048, 0x0001 Items, ...) -- CPU_ReadMem(4 bytes @ 0xE0001048) - Data: 00 00 00 00  returns 0x01 (0001ms, 0666ms total)
T0834 005:292 JLINK_ReadMemU32(0xE0001058, 0x0001 Items, ...) -- CPU_ReadMem(4 bytes @ 0xE0001058) - Data: 00 00 00 00  returns 0x01 (0000ms, 0666ms total)
T0834 005:293 JLINK_ReadReg(R0)  returns 0x0800C3D5 (0000ms, 0666ms total)
T0834 005:293 JLINK_ReadReg(R1)  returns 0x2002B168 (0000ms, 0666ms total)
T0834 005:293 JLINK_ReadReg(R2)  returns 0x00000000 (0000ms, 0666ms total)
T0834 005:293 JLINK_ReadReg(R3)  returns 0x08008D75 (0000ms, 0666ms total)
T0834 005:293 JLINK_ReadReg(R4)  returns 0x0800DC18 (0000ms, 0666ms total)
T0834 005:293 JLINK_ReadReg(R5)  returns 0x0800DC18 (0000ms, 0666ms total)
T0834 005:293 JLINK_ReadReg(R6)  returns 0x00000000 (0000ms, 0666ms total)
T0834 005:293 JLINK_ReadReg(R7)  returns 0x00000000 (0000ms, 0666ms total)
T0834 005:293 JLINK_ReadReg(R8)  returns 0x00000000 (0000ms, 0666ms total)
T0834 005:293 JLINK_ReadReg(R9)  returns 0x00000000 (0000ms, 0666ms total)
T0834 005:293 JLINK_ReadReg(R10)  returns 0x00000000 (0000ms, 0666ms total)
T0834 005:293 JLINK_ReadReg(R11)  returns 0x00000000 (0000ms, 0666ms total)
T0834 005:293 JLINK_ReadReg(R12)  returns 0x00000000 (0000ms, 0666ms total)
T0834 005:293 JLINK_ReadReg(R13 (SP))  returns 0x2002B168 (0000ms, 0666ms total)
T0834 005:293 JLINK_ReadReg(R14)  returns 0x0800045D (0000ms, 0666ms total)
T0834 005:293 JLINK_ReadReg(R15 (PC))  returns 0x0800C3D4 (0000ms, 0666ms total)
T0834 005:293 JLINK_ReadReg(XPSR)  returns 0x61000000 (0000ms, 0666ms total)
T0834 005:293 JLINK_ReadReg(MSP)  returns 0x2002B168 (0000ms, 0666ms total)
T0834 005:293 JLINK_ReadReg(PSP)  returns 0x00000000 (0000ms, 0666ms total)
T0834 005:293 JLINK_ReadReg(CFBP)  returns 0x00000000 (0000ms, 0666ms total)
T0834 005:293 JLINK_ReadReg(FPSCR)  returns 0x00000000 (0005ms, 0671ms total)
T0834 005:298 JLINK_ReadReg(FPS0)  returns 0x00000000 (0000ms, 0671ms total)
T0834 005:298 JLINK_ReadReg(FPS1)  returns 0x00000000 (0001ms, 0672ms total)
T0834 005:299 JLINK_ReadReg(FPS2)  returns 0x00000000 (0000ms, 0672ms total)
T0834 005:299 JLINK_ReadReg(FPS3)  returns 0x00000000 (0000ms, 0672ms total)
T0834 005:299 JLINK_ReadReg(FPS4)  returns 0x00000000 (0000ms, 0672ms total)
T0834 005:299 JLINK_ReadReg(FPS5)  returns 0x00000000 (0000ms, 0672ms total)
T0834 005:299 JLINK_ReadReg(FPS6)  returns 0x00000000 (0000ms, 0672ms total)
T0834 005:299 JLINK_ReadReg(FPS7)  returns 0x00000000 (0000ms, 0672ms total)
T0834 005:299 JLINK_ReadReg(FPS8)  returns 0x00000000 (0000ms, 0672ms total)
T0834 005:299 JLINK_ReadReg(FPS9)  returns 0x00000000 (0000ms, 0672ms total)
T0834 005:299 JLINK_ReadReg(FPS10)  returns 0x00000000 (0000ms, 0672ms total)
T0834 005:299 JLINK_ReadReg(FPS11)  returns 0x00000000 (0000ms, 0672ms total)
T0834 005:299 JLINK_ReadReg(FPS12)  returns 0x00000000 (0000ms, 0672ms total)
T0834 005:299 JLINK_ReadReg(FPS13)  returns 0x00000000 (0000ms, 0672ms total)
T0834 005:299 JLINK_ReadReg(FPS14)  returns 0x00000000 (0000ms, 0672ms total)
T0834 005:299 JLINK_ReadReg(FPS15)  returns 0x00000000 (0000ms, 0672ms total)
T0834 005:299 JLINK_ReadReg(FPS16)  returns 0x00000000 (0000ms, 0672ms total)
T0834 005:299 JLINK_ReadReg(FPS17)  returns 0x00000000 (0000ms, 0672ms total)
T0834 005:299 JLINK_ReadReg(FPS18)  returns 0x00000000 (0000ms, 0672ms total)
T0834 005:299 JLINK_ReadReg(FPS19)  returns 0x00000000 (0000ms, 0672ms total)
T0834 005:299 JLINK_ReadReg(FPS20)  returns 0x00000000 (0000ms, 0672ms total)
T0834 005:299 JLINK_ReadReg(FPS21)  returns 0x00000000 (0001ms, 0673ms total)
T0834 005:300 JLINK_ReadReg(FPS22)  returns 0x00000000 (0000ms, 0673ms total)
T0834 005:300 JLINK_ReadReg(FPS23)  returns 0x00000000 (0000ms, 0673ms total)
T0834 005:300 JLINK_ReadReg(FPS24)  returns 0x00000000 (0000ms, 0673ms total)
T0834 005:300 JLINK_ReadReg(FPS25)  returns 0x00000000 (0000ms, 0673ms total)
T0834 005:300 JLINK_ReadReg(FPS26)  returns 0x00000000 (0000ms, 0673ms total)
T0834 005:300 JLINK_ReadReg(FPS27)  returns 0x00000000 (0000ms, 0673ms total)
T0834 005:300 JLINK_ReadReg(FPS28)  returns 0x00000000 (0000ms, 0673ms total)
T0834 005:300 JLINK_ReadReg(FPS29)  returns 0x00000000 (0000ms, 0673ms total)
T0834 005:300 JLINK_ReadReg(FPS30)  returns 0x00000000 (0000ms, 0673ms total)
T0834 005:300 JLINK_ReadReg(FPS31)  returns 0x00000000 (0000ms, 0673ms total)
T2F58 005:305 JLINK_ReadMem (0x200001F8, 0x0004 Bytes, ...) -- CPU_ReadMem(64 bytes @ 0x200001C0) -- Updating C cache (64 bytes @ 0x200001C0) -- Read from C cache (4 bytes @ 0x200001F8) - Data: 00 00 00 00  returns 0x00 (0001ms, 0674ms total)
T2F58 005:306 JLINK_ReadMem (0x200000BE, 0x0002 Bytes, ...) -- CPU_ReadMem(64 bytes @ 0x20000080) -- Updating C cache (64 bytes @ 0x20000080) -- Read from C cache (2 bytes @ 0x200000BE) - Data: 00 00  returns 0x00 (0002ms, 0676ms total)
T2F58 005:308 JLINK_ReadMem (0x200000C0, 0x0002 Bytes, ...) -- CPU_ReadMem(64 bytes @ 0x200000C0) -- Updating C cache (64 bytes @ 0x200000C0) -- Read from C cache (2 bytes @ 0x200000C0) - Data: 00 00  returns 0x00 (0001ms, 0677ms total)
T2F58 005:311 JLINK_ReadMem (0x200009E2, 0x0012 Bytes, ...) -- CPU_ReadMem(64 bytes @ 0x200009C0) -- Updating C cache (64 bytes @ 0x200009C0) -- Read from C cache (18 bytes @ 0x200009E2) - Data: 00 00 00 00 00 00 00 00 00 00 00 00 00 00 00 00 ...  returns 0x00 (0001ms, 0678ms total)
T2F58 005:312 JLINK_ReadMem (0x2000000E, 0x0001 Bytes, ...) -- CPU_ReadMem(64 bytes @ 0x20000000) -- Updating C cache (64 bytes @ 0x20000000) -- Read from C cache (1 bytes @ 0x2000000E) - Data: 00  returns 0x00 (0001ms, 0679ms total)
T2F58 005:317 JLINK_ReadMem (0x200000BC, 0x0001 Bytes, ...) -- Read from C cache (1 bytes @ 0x200000BC) - Data: 00  returns 0x00 (0000ms, 0679ms total)
T2F58 005:319 JLINK_ReadMem (0x200001E0, 0x0004 Bytes, ...) -- Read from C cache (4 bytes @ 0x200001E0) - Data: 00 00 00 00  returns 0x00 (0000ms, 0679ms total)
T2F58 005:319 JLINK_ReadMem (0x200001E4, 0x0004 Bytes, ...) -- Read from C cache (4 bytes @ 0x200001E4) - Data: 00 00 00 00  returns 0x00 (0000ms, 0679ms total)
T2F58 005:320 JLINK_ReadMem (0x200001F0, 0x0004 Bytes, ...) -- Read from C cache (4 bytes @ 0x200001F0) - Data: 00 00 00 00  returns 0x00 (0000ms, 0679ms total)
T2F58 005:320 JLINK_ReadMem (0x20000080, 0x0004 Bytes, ...) -- Read from C cache (4 bytes @ 0x20000080) - Data: 00 00 00 40  returns 0x00 (0000ms, 0679ms total)
T2F58 005:324 JLINK_ReadMem (0x2000005A, 0x0001 Bytes, ...) -- CPU_ReadMem(64 bytes @ 0x20000040) -- Updating C cache (64 bytes @ 0x20000040) -- Read from C cache (1 bytes @ 0x2000005A) - Data: 00  returns 0x00 (0001ms, 0680ms total)
T2F58 005:325 JLINK_ReadMem (0x2000005B, 0x0001 Bytes, ...) -- Read from C cache (1 bytes @ 0x2000005B) - Data: FF  returns 0x00 (0000ms, 0680ms total)
T2F58 005:327 JLINK_ReadMem (0x40023800, 0x0018 Bytes, ...) -- CPU_ReadMem(24 bytes @ 0x40023800) - Data: 83 80 00 00 10 30 00 24 00 00 00 00 00 00 00 00 ...  returns 0x00 (0001ms, 0681ms total)
T2F58 005:328 JLINK_ReadMem (0x40023818, 0x0004 Bytes, ...) -- CPU_ReadMem(4 bytes @ 0x40023818) - Data: 00 00 00 00  returns 0x00 (0001ms, 0682ms total)
T2F58 005:329 JLINK_ReadMem (0x40023820, 0x0004 Bytes, ...) -- CPU_ReadMem(4 bytes @ 0x40023820) - Data: 00 00 00 00  returns 0x00 (0000ms, 0682ms total)
T2F58 005:329 JLINK_ReadMem (0x40023824, 0x0004 Bytes, ...) -- CPU_ReadMem(4 bytes @ 0x40023824) - Data: 00 00 00 00  returns 0x00 (0001ms, 0683ms total)
T2F58 005:330 JLINK_ReadMem (0x40023830, 0x0008 Bytes, ...) -- CPU_ReadMem(8 bytes @ 0x40023830) - Data: 00 00 10 00 00 00 00 00  returns 0x00 (0000ms, 0683ms total)
T2F58 005:330 JLINK_ReadMem (0x40023838, 0x0004 Bytes, ...) -- CPU_ReadMem(4 bytes @ 0x40023838) - Data: 00 00 00 00  returns 0x00 (0001ms, 0684ms total)
T2F58 005:331 JLINK_ReadMem (0x40023840, 0x0004 Bytes, ...) -- CPU_ReadMem(4 bytes @ 0x40023840) - Data: 00 00 00 00  returns 0x00 (0000ms, 0684ms total)
T2F58 005:331 JLINK_ReadMem (0x40023844, 0x0004 Bytes, ...) -- CPU_ReadMem(4 bytes @ 0x40023844) - Data: 00 00 00 00  returns 0x00 (0001ms, 0685ms total)
T2F58 005:332 JLINK_ReadMem (0x40023850, 0x0008 Bytes, ...) -- CPU_ReadMem(8 bytes @ 0x40023850) - Data: FF 97 EF 7E F1 00 00 00  returns 0x00 (0001ms, 0686ms total)
T2F58 005:333 JLINK_ReadMem (0x40023858, 0x0004 Bytes, ...) -- CPU_ReadMem(4 bytes @ 0x40023858) - Data: 01 00 00 00  returns 0x00 (0000ms, 0686ms total)
T2F58 005:333 JLINK_ReadMem (0x40023860, 0x0004 Bytes, ...) -- CPU_ReadMem(4 bytes @ 0x40023860) - Data: FF C9 FE F6  returns 0x00 (0001ms, 0687ms total)
T2F58 005:334 JLINK_ReadMem (0x40023864, 0x0004 Bytes, ...) -- CPU_ReadMem(4 bytes @ 0x40023864) - Data: 33 7F 77 04  returns 0x00 (0000ms, 0687ms total)
T2F58 005:335 JLINK_ReadMem (0x40023870, 0x0004 Bytes, ...) -- CPU_ReadMem(4 bytes @ 0x40023870) - Data: 00 00 00 00  returns 0x00 (0000ms, 0687ms total)
T2F58 005:335 JLINK_ReadMem (0x40023874, 0x0004 Bytes, ...) -- CPU_ReadMem(4 bytes @ 0x40023874) - Data: 00 00 00 1E  returns 0x00 (0001ms, 0688ms total)
T2F58 005:336 JLINK_ReadMem (0x40023880, 0x000C Bytes, ...) -- CPU_ReadMem(12 bytes @ 0x40023880) - Data: 00 00 00 00 00 30 00 24 00 30 00 24  returns 0x00 (0000ms, 0688ms total)
T2F58 005:336 JLINK_ReadMem (0x4002388C, 0x0004 Bytes, ...) -- CPU_ReadMem(4 bytes @ 0x4002388C) - Data: 00 00 00 00  returns 0x00 (0001ms, 0689ms total)
T2F58 005:337 JLINK_ReadMem (0x40015000, 0x0020 Bytes, ...) -- CPU_ReadMem(32 bytes @ 0x40015000) - Data: 00 00 00 00 00 00 00 00 00 00 00 00 00 00 00 00 ...  returns 0x00 (0001ms, 0690ms total)
T2F58 005:338 JLINK_ReadMem (0x40015020, 0x0004 Bytes, ...) -- CPU_ReadMem(4 bytes @ 0x40015020) - Data: 00 00 00 00  returns 0x00 (0001ms, 0691ms total)
T2F58 005:339 JLINK_ReadMem (0x40026400, 0x00CC Bytes, ...) -- CPU_ReadMem(204 bytes @ 0x40026400) - Data: 00 00 00 00 00 00 00 00 00 00 00 00 00 00 00 00 ...  returns 0x00 (0003ms, 0694ms total)
T2F58 005:342 JLINK_ReadMem (0x400264CC, 0x0004 Bytes, ...) -- CPU_ReadMem(4 bytes @ 0x400264CC) - Data: 00 00 00 00  returns 0x00 (0000ms, 0694ms total)
T2F58 005:343 JLINK_ReadMem (0x40020000, 0x0014 Bytes, ...) -- CPU_ReadMem(20 bytes @ 0x40020000) - Data: 00 00 00 A8 00 00 00 A8 00 00 00 A8 00 00 00 A8 ...  returns 0x00 (0001ms, 0695ms total)
T2F58 005:344 JLINK_ReadMem (0x40020014, 0x0004 Bytes, ...) -- CPU_ReadMem(4 bytes @ 0x40020014) - Data: 00 00 00 A8  returns 0x00 (0000ms, 0695ms total)
T2F58 005:344 JLINK_ReadMem (0x4002001C, 0x0008 Bytes, ...) -- CPU_ReadMem(8 bytes @ 0x4002001C) - Data: 00 00 00 A8 00 00 00 A8  returns 0x00 (0001ms, 0696ms total)
T2F58 005:345 JLINK_ReadMem (0x40020024, 0x0004 Bytes, ...) -- CPU_ReadMem(4 bytes @ 0x40020024) - Data: 00 00 00 A8  returns 0x00 (0000ms, 0696ms total)
T0834 008:873 JLINK_Go() -- CPU_ReadMem(4 bytes @ 0xE0001000) -- CPU_WriteMem(4 bytes @ 0xE0002008) (0003ms, 0699ms total)
T0834 008:977 JLINK_IsHalted()  returns FALSE (0000ms, 0699ms total)
T0834 009:078 JLINK_IsHalted()  returns FALSE (0000ms, 0699ms total)
T0834 009:179 JLINK_IsHalted()  returns FALSE (0000ms, 0699ms total)
T0834 009:280 JLINK_IsHalted()  returns FALSE (0000ms, 0699ms total)
T0834 009:381 JLINK_IsHalted()  returns FALSE (0000ms, 0699ms total)
T0834 009:483 JLINK_ReadMemU32(0xE0001004, 0x0001 Items, ...) -- CPU is running -- CPU_ReadMem(4 bytes @ 0xE0001004) - Data: F8 A6 84 06  returns 0x01 (0000ms, 0699ms total)
T2F58 009:483 JLINK_ReadMem (0x200001F8, 0x0004 Bytes, ...) -- CPU is running -- CPU_ReadMem(4 bytes @ 0x200001F8) - Data: 00 00 00 00  returns 0x00 (0000ms, 0699ms total)
T2F58 009:483 JLINK_ReadMem (0x200000BE, 0x0002 Bytes, ...) -- CPU is running -- CPU_ReadMem(2 bytes @ 0x200000BE) - Data: 00 00  returns 0x00 (0001ms, 0700ms total)
T2F58 009:485 JLINK_ReadMem (0x200000C0, 0x0002 Bytes, ...) -- CPU is running -- CPU_ReadMem(2 bytes @ 0x200000C0) - Data: 00 00  returns 0x00 (0000ms, 0700ms total)
T2F58 009:486 JLINK_ReadMem (0x200009E2, 0x0012 Bytes, ...) -- CPU is running -- CPU_ReadMem(18 bytes @ 0x200009E2) - Data: 00 00 00 00 00 00 00 00 00 00 00 00 00 00 00 00 ...  returns 0x00 (0001ms, 0701ms total)
T2F58 009:487 JLINK_ReadMem (0x2000000E, 0x0001 Bytes, ...) -- CPU is running -- CPU_ReadMem(1 bytes @ 0x2000000E) - Data: 00  returns 0x00 (0001ms, 0702ms total)
T2F58 009:491 JLINK_ReadMem (0x200000BC, 0x0001 Bytes, ...) -- CPU is running -- CPU_ReadMem(1 bytes @ 0x200000BC) - Data: 00  returns 0x00 (0001ms, 0703ms total)
T2F58 009:492 JLINK_ReadMem (0x200000BE, 0x0002 Bytes, ...) -- CPU is running -- CPU_ReadMem(2 bytes @ 0x200000BE) - Data: 00 00  returns 0x00 (0001ms, 0704ms total)
T2F58 009:493 JLINK_ReadMem (0x200000C0, 0x0002 Bytes, ...) -- CPU is running -- CPU_ReadMem(2 bytes @ 0x200000C0) - Data: 00 00  returns 0x00 (0001ms, 0705ms total)
T2F58 009:494 JLINK_ReadMem (0x200001E0, 0x0004 Bytes, ...) -- CPU is running -- CPU_ReadMem(4 bytes @ 0x200001E0) - Data: 80 CF 00 10  returns 0x00 (0001ms, 0706ms total)
T2F58 009:495 JLINK_ReadMem (0x200001E4, 0x0004 Bytes, ...) -- CPU is running -- CPU_ReadMem(4 bytes @ 0x200001E4) - Data: 40 BF 00 10  returns 0x00 (0001ms, 0707ms total)
T2F58 009:497 JLINK_ReadMem (0x200001F0, 0x0004 Bytes, ...) -- CPU is running -- CPU_ReadMem(4 bytes @ 0x200001F0) - Data: 40 7F 00 10  returns 0x00 (0000ms, 0707ms total)
T2F58 009:498 JLINK_ReadMem (0x10007F40, 0x0020 Bytes, ...) -- CPU is running -- CPU_ReadMem(32 bytes @ 0x10007F40) - Data: 55 1A 7B 1A 83 CA F7 6C B2 A6 3E 6F 94 29 BD 67 ...  returns 0x00 (0001ms, 0708ms total)
T2F58 009:503 JLINK_ReadMem (0x20000080, 0x0004 Bytes, ...) -- CPU is running -- CPU_ReadMem(4 bytes @ 0x20000080) - Data: 00 00 00 40  returns 0x00 (0000ms, 0708ms total)
T2F58 009:507 JLINK_ReadMem (0x2000005A, 0x0001 Bytes, ...) -- CPU is running -- CPU_ReadMem(1 bytes @ 0x2000005A) - Data: 00  returns 0x00 (0000ms, 0708ms total)
T2F58 009:508 JLINK_ReadMem (0x2000005B, 0x0001 Bytes, ...) -- CPU is running -- CPU_ReadMem(1 bytes @ 0x2000005B) - Data: FF  returns 0x00 (0000ms, 0708ms total)
T2F58 009:511 JLINK_ReadMem (0x40023800, 0x0018 Bytes, ...) -- CPU is running -- CPU_ReadMem(24 bytes @ 0x40023800) - Data: 83 80 03 03 19 5A 40 08 0A 94 00 00 00 00 00 00 ...  returns 0x00 (0002ms, 0710ms total)
T2F58 009:513 JLINK_ReadMem (0x40023818, 0x0004 Bytes, ...) -- CPU is running -- CPU_ReadMem(4 bytes @ 0x40023818) - Data: 00 00 00 00  returns 0x00 (0000ms, 0710ms total)
T2F58 009:513 JLINK_ReadMem (0x40023820, 0x0004 Bytes, ...) -- CPU is running -- CPU_ReadMem(4 bytes @ 0x40023820) - Data: 00 00 00 00  returns 0x00 (0000ms, 0710ms total)
T2F58 009:513 JLINK_ReadMem (0x40023824, 0x0004 Bytes, ...) -- CPU is running -- CPU_ReadMem(4 bytes @ 0x40023824) - Data: 00 00 00 00  returns 0x00 (0000ms, 0710ms total)
T2F58 009:513 JLINK_ReadMem (0x40023830, 0x0008 Bytes, ...) -- CPU is running -- CPU_ReadMem(8 bytes @ 0x40023830) - Data: BB 01 50 00 00 00 00 00  returns 0x00 (0002ms, 0712ms total)
T2F58 009:515 JLINK_ReadMem (0x40023838, 0x0004 Bytes, ...) -- CPU is running -- CPU_ReadMem(4 bytes @ 0x40023838) - Data: 00 00 00 00  returns 0x00 (0001ms, 0713ms total)
T2F58 009:516 JLINK_ReadMem (0x40023840, 0x0004 Bytes, ...) -- CPU is running -- CPU_ReadMem(4 bytes @ 0x40023840) - Data: 0F 00 02 16  returns 0x00 (0000ms, 0713ms total)
T2F58 009:516 JLINK_ReadMem (0x40023844, 0x0004 Bytes, ...) -- CPU is running -- CPU_ReadMem(4 bytes @ 0x40023844) - Data: 30 00 10 00  returns 0x00 (0000ms, 0713ms total)
T2F58 009:516 JLINK_ReadMem (0x40023850, 0x0008 Bytes, ...) -- CPU is running -- CPU_ReadMem(8 bytes @ 0x40023850) - Data: FF 97 EF 7E F1 00 00 00  returns 0x00 (0001ms, 0714ms total)
T2F58 009:517 JLINK_ReadMem (0x40023858, 0x0004 Bytes, ...) -- CPU is running -- CPU_ReadMem(4 bytes @ 0x40023858) - Data: 01 00 00 00  returns 0x00 (0002ms, 0716ms total)
T2F58 009:519 JLINK_ReadMem (0x40023860, 0x0004 Bytes, ...) -- CPU is running -- CPU_ReadMem(4 bytes @ 0x40023860) - Data: FF C9 FE F6  returns 0x00 (0000ms, 0716ms total)
T2F58 009:519 JLINK_ReadMem (0x40023864, 0x0004 Bytes, ...) -- CPU is running -- CPU_ReadMem(4 bytes @ 0x40023864) - Data: 33 7F 77 04  returns 0x00 (0001ms, 0717ms total)
T2F58 009:520 JLINK_ReadMem (0x40023870, 0x0004 Bytes, ...) -- CPU is running -- CPU_ReadMem(4 bytes @ 0x40023870) - Data: 00 00 00 00  returns 0x00 (0000ms, 0717ms total)
T2F58 009:520 JLINK_ReadMem (0x40023874, 0x0004 Bytes, ...) -- CPU is running -- CPU_ReadMem(4 bytes @ 0x40023874) - Data: 00 00 00 1E  returns 0x00 (0001ms, 0718ms total)
T2F58 009:521 JLINK_ReadMem (0x40023880, 0x000C Bytes, ...) -- CPU is running -- CPU_ReadMem(12 bytes @ 0x40023880) - Data: 00 00 00 00 00 30 00 24 00 30 00 24  returns 0x00 (0000ms, 0718ms total)
T2F58 009:521 JLINK_ReadMem (0x4002388C, 0x0004 Bytes, ...) -- CPU is running -- CPU_ReadMem(4 bytes @ 0x4002388C) - Data: 00 00 00 00  returns 0x00 (0000ms, 0718ms total)
T2F58 009:523 JLINK_ReadMem (0x40015000, 0x0020 Bytes, ...) -- CPU is running -- CPU_ReadMem(32 bytes @ 0x40015000) - Data: 47 03 00 00 00 00 00 00 02 00 00 00 01 00 00 00 ...  returns 0x00 (0001ms, 0719ms total)
T2F58 009:524 JLINK_ReadMem (0x40015020, 0x0004 Bytes, ...) -- CPU is running -- CPU_ReadMem(4 bytes @ 0x40015020) - Data: 00 00 00 00  returns 0x00 (0000ms, 0719ms total)
T2F58 009:525 JLINK_ReadMem (0x40026400, 0x00CC Bytes, ...) -- CPU is running -- CPU_ReadMem(204 bytes @ 0x40026400) - Data: 00 00 00 00 00 00 00 00 00 00 00 00 00 00 00 00 ...  returns 0x00 (0003ms, 0722ms total)
T2F58 009:528 JLINK_ReadMem (0x400264CC, 0x0004 Bytes, ...) -- CPU is running -- CPU_ReadMem(4 bytes @ 0x400264CC) - Data: 21 00 00 00  returns 0x00 (0000ms, 0722ms total)
T2F58 009:531 JLINK_ReadMem (0x40020000, 0x0014 Bytes, ...) -- CPU is running -- CPU_ReadMem(20 bytes @ 0x40020000) - Data: AA 55 A8 AA 00 00 00 00 AF 00 E8 0F 55 00 14 64 ...  returns 0x00 (0001ms, 0723ms total)
T2F58 009:532 JLINK_ReadMem (0x40020014, 0x0004 Bytes, ...) -- CPU is running -- CPU_ReadMem(4 bytes @ 0x40020014) - Data: F0 00 00 00  returns 0x00 (0001ms, 0724ms total)
T2F58 009:533 JLINK_ReadMem (0x4002001C, 0x0008 Bytes, ...) -- CPU is running -- CPU_ReadMem(8 bytes @ 0x4002001C) - Data: 00 00 00 00 11 77 00 00  returns 0x00 (0000ms, 0724ms total)
T2F58 009:533 JLINK_ReadMem (0x40020024, 0x0004 Bytes, ...) -- CPU is running -- CPU_ReadMem(4 bytes @ 0x40020024) - Data: 70 97 09 00  returns 0x00 (0001ms, 0725ms total)
T0834 009:536 JLINK_IsHalted()  returns FALSE (0001ms, 0726ms total)
T0834 009:638 JLINK_IsHalted()  returns FALSE (0000ms, 0725ms total)
T0834 009:739 JLINK_IsHalted()  returns FALSE (0000ms, 0725ms total)
T0834 009:840 JLINK_IsHalted()  returns FALSE (0000ms, 0725ms total)
T0834 009:942 JLINK_IsHalted()  returns FALSE (0000ms, 0725ms total)
T0834 010:043 JLINK_ReadMemU32(0xE0001004, 0x0001 Items, ...) -- CPU is running -- CPU_ReadMem(4 bytes @ 0xE0001004) - Data: C1 0F 88 0C  returns 0x01 (0000ms, 0725ms total)
T2F58 010:043 JLINK_ReadMem (0x200001F8, 0x0004 Bytes, ...) -- CPU is running -- CPU_ReadMem(4 bytes @ 0x200001F8) - Data: 00 00 00 00  returns 0x00 (0001ms, 0726ms total)
T2F58 010:044 JLINK_ReadMem (0x200000BE, 0x0002 Bytes, ...) -- CPU is running -- CPU_ReadMem(2 bytes @ 0x200000BE) - Data: 00 00  returns 0x00 (0000ms, 0726ms total)
T2F58 010:044 JLINK_ReadMem (0x200000C0, 0x0002 Bytes, ...) -- CPU is running -- CPU_ReadMem(2 bytes @ 0x200000C0) - Data: 00 00  returns 0x00 (0001ms, 0727ms total)
T2F58 010:046 JLINK_ReadMem (0x200009E2, 0x0012 Bytes, ...) -- CPU is running -- CPU_ReadMem(18 bytes @ 0x200009E2) - Data: 00 00 00 00 00 00 00 00 00 00 00 00 00 00 00 00 ...  returns 0x00 (0001ms, 0728ms total)
T2F58 010:047 JLINK_ReadMem (0x2000000E, 0x0001 Bytes, ...) -- CPU is running -- CPU_ReadMem(1 bytes @ 0x2000000E) - Data: 00  returns 0x00 (0000ms, 0728ms total)
T2F58 010:050 JLINK_ReadMem (0x200000BC, 0x0001 Bytes, ...) -- CPU is running -- CPU_ReadMem(1 bytes @ 0x200000BC) - Data: 00  returns 0x00 (0001ms, 0729ms total)
T2F58 010:051 JLINK_ReadMem (0x200000BE, 0x0002 Bytes, ...) -- CPU is running -- CPU_ReadMem(2 bytes @ 0x200000BE) - Data: 00 00  returns 0x00 (0001ms, 0730ms total)
T2F58 010:052 JLINK_ReadMem (0x200000C0, 0x0002 Bytes, ...) -- CPU is running -- CPU_ReadMem(2 bytes @ 0x200000C0) - Data: 00 00  returns 0x00 (0000ms, 0730ms total)
T2F58 010:052 JLINK_ReadMem (0x200001E0, 0x0004 Bytes, ...) -- CPU is running -- CPU_ReadMem(4 bytes @ 0x200001E0) - Data: 80 CF 00 10  returns 0x00 (0001ms, 0731ms total)
T2F58 010:053 JLINK_ReadMem (0x200001E4, 0x0004 Bytes, ...) -- CPU is running -- CPU_ReadMem(4 bytes @ 0x200001E4) - Data: 40 BF 00 10  returns 0x00 (0001ms, 0732ms total)
T2F58 010:054 JLINK_ReadMem (0x200001F0, 0x0004 Bytes, ...) -- CPU is running -- CPU_ReadMem(4 bytes @ 0x200001F0) - Data: 40 7F 00 10  returns 0x00 (0001ms, 0733ms total)
T2F58 010:057 JLINK_ReadMem (0x10007F40, 0x0020 Bytes, ...) -- CPU is running -- CPU_ReadMem(32 bytes @ 0x10007F40) - Data: 55 1A 7B 1A 83 CA F7 6C B2 A6 3E 6F 94 29 BD 67 ...  returns 0x00 (0001ms, 0734ms total)
T2F58 010:058 JLINK_ReadMem (0x20000080, 0x0004 Bytes, ...) -- CPU is running -- CPU_ReadMem(4 bytes @ 0x20000080) - Data: 00 00 00 40  returns 0x00 (0000ms, 0734ms total)
T2F58 010:061 JLINK_ReadMem (0x2000005A, 0x0001 Bytes, ...) -- CPU is running -- CPU_ReadMem(1 bytes @ 0x2000005A) - Data: 00  returns 0x00 (0001ms, 0735ms total)
T2F58 010:062 JLINK_ReadMem (0x2000005B, 0x0001 Bytes, ...) -- CPU is running -- CPU_ReadMem(1 bytes @ 0x2000005B) - Data: FF  returns 0x00 (0000ms, 0735ms total)
T2F58 010:063 JLINK_ReadMem (0x40023800, 0x0018 Bytes, ...) -- CPU is running -- CPU_ReadMem(24 bytes @ 0x40023800) - Data: 83 80 03 03 19 5A 40 08 0A 94 00 00 00 00 00 00 ...  returns 0x00 (0001ms, 0736ms total)
T2F58 010:064 JLINK_ReadMem (0x40023818, 0x0004 Bytes, ...) -- CPU is running -- CPU_ReadMem(4 bytes @ 0x40023818) - Data: 00 00 00 00  returns 0x00 (0001ms, 0737ms total)
T2F58 010:065 JLINK_ReadMem (0x40023820, 0x0004 Bytes, ...) -- CPU is running -- CPU_ReadMem(4 bytes @ 0x40023820) - Data: 00 00 00 00  returns 0x00 (0000ms, 0737ms total)
T2F58 010:065 JLINK_ReadMem (0x40023824, 0x0004 Bytes, ...) -- CPU is running -- CPU_ReadMem(4 bytes @ 0x40023824) - Data: 00 00 00 00  returns 0x00 (0001ms, 0738ms total)
T2F58 010:066 JLINK_ReadMem (0x40023830, 0x0008 Bytes, ...) -- CPU is running -- CPU_ReadMem(8 bytes @ 0x40023830) - Data: BB 01 50 00 00 00 00 00  returns 0x00 (0001ms, 0739ms total)
T2F58 010:067 JLINK_ReadMem (0x40023838, 0x0004 Bytes, ...) -- CPU is running -- CPU_ReadMem(4 bytes @ 0x40023838) - Data: 00 00 00 00  returns 0x00 (0000ms, 0739ms total)
T2F58 010:067 JLINK_ReadMem (0x40023840, 0x0004 Bytes, ...) -- CPU is running -- CPU_ReadMem(4 bytes @ 0x40023840) - Data: 0F 00 02 16  returns 0x00 (0001ms, 0740ms total)
T2F58 010:068 JLINK_ReadMem (0x40023844, 0x0004 Bytes, ...) -- CPU is running -- CPU_ReadMem(4 bytes @ 0x40023844) - Data: 30 00 10 00  returns 0x00 (0000ms, 0740ms total)
T2F58 010:068 JLINK_ReadMem (0x40023850, 0x0008 Bytes, ...) -- CPU is running -- CPU_ReadMem(8 bytes @ 0x40023850) - Data: FF 97 EF 7E F1 00 00 00  returns 0x00 (0001ms, 0741ms total)
T2F58 010:069 JLINK_ReadMem (0x40023858, 0x0004 Bytes, ...) -- CPU is running -- CPU_ReadMem(4 bytes @ 0x40023858) - Data: 01 00 00 00  returns 0x00 (0001ms, 0742ms total)
T2F58 010:070 JLINK_ReadMem (0x40023860, 0x0004 Bytes, ...) -- CPU is running -- CPU_ReadMem(4 bytes @ 0x40023860) - Data: FF C9 FE F6  returns 0x00 (0000ms, 0742ms total)
T2F58 010:070 JLINK_ReadMem (0x40023864, 0x0004 Bytes, ...) -- CPU is running -- CPU_ReadMem(4 bytes @ 0x40023864) - Data: 33 7F 77 04  returns 0x00 (0001ms, 0743ms total)
T2F58 010:071 JLINK_ReadMem (0x40023870, 0x0004 Bytes, ...) -- CPU is running -- CPU_ReadMem(4 bytes @ 0x40023870) - Data: 00 00 00 00  returns 0x00 (0000ms, 0743ms total)
T2F58 010:071 JLINK_ReadMem (0x40023874, 0x0004 Bytes, ...) -- CPU is running -- CPU_ReadMem(4 bytes @ 0x40023874) - Data: 00 00 00 1E  returns 0x00 (0001ms, 0744ms total)
T2F58 010:072 JLINK_ReadMem (0x40023880, 0x000C Bytes, ...) -- CPU is running -- CPU_ReadMem(12 bytes @ 0x40023880) - Data: 00 00 00 00 00 30 00 24 00 30 00 24  returns 0x00 (0001ms, 0745ms total)
T2F58 010:073 JLINK_ReadMem (0x4002388C, 0x0004 Bytes, ...) -- CPU is running -- CPU_ReadMem(4 bytes @ 0x4002388C) - Data: 00 00 00 00  returns 0x00 (0000ms, 0745ms total)
T2F58 010:074 JLINK_ReadMem (0x40015000, 0x0020 Bytes, ...) -- CPU is running -- CPU_ReadMem(32 bytes @ 0x40015000) - Data: 47 03 00 00 03 00 00 00 02 00 00 00 00 00 00 00 ...  returns 0x00 (0001ms, 0746ms total)
T2F58 010:075 JLINK_ReadMem (0x40015020, 0x0004 Bytes, ...) -- CPU is running -- CPU_ReadMem(4 bytes @ 0x40015020) - Data: 00 00 00 00  returns 0x00 (0000ms, 0746ms total)
T2F58 010:076 JLINK_ReadMem (0x40026400, 0x00CC Bytes, ...) -- CPU is running -- CPU_ReadMem(204 bytes @ 0x40026400) - Data: 00 00 00 00 00 00 00 00 00 00 00 00 00 00 00 00 ...  returns 0x00 (0003ms, 0749ms total)
T2F58 010:079 JLINK_ReadMem (0x400264CC, 0x0004 Bytes, ...) -- CPU is running -- CPU_ReadMem(4 bytes @ 0x400264CC) - Data: 21 00 00 00  returns 0x00 (0001ms, 0750ms total)
T2F58 010:081 JLINK_ReadMem (0x40020000, 0x0014 Bytes, ...) -- CPU is running -- CPU_ReadMem(20 bytes @ 0x40020000) - Data: AA 55 A8 AA 00 00 00 00 AF 00 E8 0F 55 00 14 64 ...  returns 0x00 (0001ms, 0751ms total)
T2F58 010:082 JLINK_ReadMem (0x40020014, 0x0004 Bytes, ...) -- CPU is running -- CPU_ReadMem(4 bytes @ 0x40020014) - Data: F0 00 00 00  returns 0x00 (0000ms, 0751ms total)
T2F58 010:082 JLINK_ReadMem (0x4002001C, 0x0008 Bytes, ...) -- CPU is running -- CPU_ReadMem(8 bytes @ 0x4002001C) - Data: 00 00 00 00 11 77 00 00  returns 0x00 (0001ms, 0752ms total)
T2F58 010:083 JLINK_ReadMem (0x40020024, 0x0004 Bytes, ...) -- CPU is running -- CPU_ReadMem(4 bytes @ 0x40020024) - Data: 70 97 09 00  returns 0x00 (0001ms, 0753ms total)
T0834 010:085 JLINK_IsHalted()  returns FALSE (0000ms, 0753ms total)
T0834 010:187 JLINK_IsHalted()  returns FALSE (0000ms, 0753ms total)
T0834 010:288 JLINK_IsHalted()  returns FALSE (0000ms, 0753ms total)
T0834 010:389 JLINK_IsHalted()  returns FALSE (0000ms, 0753ms total)
T0834 010:490 JLINK_IsHalted()  returns FALSE (0000ms, 0753ms total)
T0834 010:591 JLINK_ReadMemU32(0xE0001004, 0x0001 Items, ...) -- CPU is running -- CPU_ReadMem(4 bytes @ 0xE0001004) - Data: 6D A8 55 05  returns 0x01 (0000ms, 0753ms total)
T2F58 010:591 JLINK_ReadMem (0x200001F8, 0x0004 Bytes, ...) -- CPU is running -- CPU_ReadMem(4 bytes @ 0x200001F8) - Data: 00 00 00 00  returns 0x00 (0001ms, 0754ms total)
T2F58 010:592 JLINK_ReadMem (0x200000BE, 0x0002 Bytes, ...) -- CPU is running -- CPU_ReadMem(2 bytes @ 0x200000BE) - Data: 00 00  returns 0x00 (0000ms, 0754ms total)
T2F58 010:593 JLINK_ReadMem (0x200000C0, 0x0002 Bytes, ...) -- CPU is running -- CPU_ReadMem(2 bytes @ 0x200000C0) - Data: 00 00  returns 0x00 (0000ms, 0754ms total)
T2F58 010:595 JLINK_ReadMem (0x200009E2, 0x0012 Bytes, ...) -- CPU is running -- CPU_ReadMem(18 bytes @ 0x200009E2) - Data: 00 00 00 00 00 00 00 00 00 00 00 00 00 00 00 00 ...  returns 0x00 (0001ms, 0755ms total)
T2F58 010:596 JLINK_ReadMem (0x2000000E, 0x0001 Bytes, ...) -- CPU is running -- CPU_ReadMem(1 bytes @ 0x2000000E) - Data: 00  returns 0x00 (0000ms, 0755ms total)
T2F58 010:602 JLINK_ReadMem (0x200000BC, 0x0001 Bytes, ...) -- CPU is running -- CPU_ReadMem(1 bytes @ 0x200000BC) - Data: 00  returns 0x00 (0001ms, 0756ms total)
T2F58 010:603 JLINK_ReadMem (0x200000BE, 0x0002 Bytes, ...) -- CPU is running -- CPU_ReadMem(2 bytes @ 0x200000BE) - Data: 00 00  returns 0x00 (0000ms, 0756ms total)
T2F58 010:604 JLINK_ReadMem (0x200000C0, 0x0002 Bytes, ...) -- CPU is running -- CPU_ReadMem(2 bytes @ 0x200000C0) - Data: 00 00  returns 0x00 (0000ms, 0756ms total)
T2F58 010:604 JLINK_ReadMem (0x200001E0, 0x0004 Bytes, ...) -- CPU is running -- CPU_ReadMem(4 bytes @ 0x200001E0) - Data: 80 CF 00 10  returns 0x00 (0001ms, 0757ms total)
T2F58 010:605 JLINK_ReadMem (0x200001E4, 0x0004 Bytes, ...) -- CPU is running -- CPU_ReadMem(4 bytes @ 0x200001E4) - Data: 40 BF 00 10  returns 0x00 (0000ms, 0757ms total)
T2F58 010:606 JLINK_ReadMem (0x200001F0, 0x0004 Bytes, ...) -- CPU is running -- CPU_ReadMem(4 bytes @ 0x200001F0) - Data: 40 7F 00 10  returns 0x00 (0000ms, 0757ms total)
T2F58 010:606 JLINK_ReadMem (0x10007F40, 0x0020 Bytes, ...) -- CPU is running -- CPU_ReadMem(32 bytes @ 0x10007F40) - Data: 55 1A 7B 1A 83 CA F7 6C B2 A6 3E 6F 94 29 BD 67 ...  returns 0x00 (0001ms, 0758ms total)
T2F58 010:607 JLINK_ReadMem (0x20000080, 0x0004 Bytes, ...) -- CPU is running -- CPU_ReadMem(4 bytes @ 0x20000080) - Data: 00 00 00 40  returns 0x00 (0001ms, 0759ms total)
T2F58 010:611 JLINK_ReadMem (0x2000005A, 0x0001 Bytes, ...) -- CPU is running -- CPU_ReadMem(1 bytes @ 0x2000005A) - Data: 01  returns 0x00 (0001ms, 0760ms total)
T2F58 010:612 JLINK_ReadMem (0x2000005B, 0x0001 Bytes, ...) -- CPU is running -- CPU_ReadMem(1 bytes @ 0x2000005B) - Data: 01  returns 0x00 (0001ms, 0761ms total)
T2F58 010:614 JLINK_ReadMem (0x40023800, 0x0018 Bytes, ...) -- CPU is running -- CPU_ReadMem(24 bytes @ 0x40023800) - Data: 83 80 03 03 19 5A 40 08 0A 94 00 00 00 00 00 00 ...  returns 0x00 (0001ms, 0762ms total)
T2F58 010:615 JLINK_ReadMem (0x40023818, 0x0004 Bytes, ...) -- CPU is running -- CPU_ReadMem(4 bytes @ 0x40023818) - Data: 00 00 00 00  returns 0x00 (0001ms, 0763ms total)
T2F58 010:616 JLINK_ReadMem (0x40023820, 0x0004 Bytes, ...) -- CPU is running -- CPU_ReadMem(4 bytes @ 0x40023820) - Data: 00 00 00 00  returns 0x00 (0000ms, 0763ms total)
T2F58 010:616 JLINK_ReadMem (0x40023824, 0x0004 Bytes, ...) -- CPU is running -- CPU_ReadMem(4 bytes @ 0x40023824) - Data: 00 00 00 00  returns 0x00 (0001ms, 0764ms total)
T2F58 010:617 JLINK_ReadMem (0x40023830, 0x0008 Bytes, ...) -- CPU is running -- CPU_ReadMem(8 bytes @ 0x40023830) - Data: BB 01 50 00 00 00 00 00  returns 0x00 (0001ms, 0765ms total)
T2F58 010:618 JLINK_ReadMem (0x40023838, 0x0004 Bytes, ...) -- CPU is running -- CPU_ReadMem(4 bytes @ 0x40023838) - Data: 00 00 00 00  returns 0x00 (0000ms, 0765ms total)
T2F58 010:618 JLINK_ReadMem (0x40023840, 0x0004 Bytes, ...) -- CPU is running -- CPU_ReadMem(4 bytes @ 0x40023840) - Data: 0F 00 02 16  returns 0x00 (0001ms, 0766ms total)
T2F58 010:619 JLINK_ReadMem (0x40023844, 0x0004 Bytes, ...) -- CPU is running -- CPU_ReadMem(4 bytes @ 0x40023844) - Data: 30 00 10 00  returns 0x00 (0000ms, 0766ms total)
T2F58 010:619 JLINK_ReadMem (0x40023850, 0x0008 Bytes, ...) -- CPU is running -- CPU_ReadMem(8 bytes @ 0x40023850) - Data: FF 97 EF 7E F1 00 00 00  returns 0x00 (0001ms, 0767ms total)
T2F58 010:620 JLINK_ReadMem (0x40023858, 0x0004 Bytes, ...) -- CPU is running -- CPU_ReadMem(4 bytes @ 0x40023858) - Data: 01 00 00 00  returns 0x00 (0000ms, 0767ms total)
T2F58 010:621 JLINK_ReadMem (0x40023860, 0x0004 Bytes, ...) -- CPU is running -- CPU_ReadMem(4 bytes @ 0x40023860) - Data: FF C9 FE F6  returns 0x00 (0000ms, 0768ms total)
T2F58 010:621 JLINK_ReadMem (0x40023864, 0x0004 Bytes, ...) -- CPU is running -- CPU_ReadMem(4 bytes @ 0x40023864) - Data: 33 7F 77 04  returns 0x00 (0001ms, 0769ms total)
T2F58 010:622 JLINK_ReadMem (0x40023870, 0x0004 Bytes, ...) -- CPU is running -- CPU_ReadMem(4 bytes @ 0x40023870) - Data: 00 00 00 00  returns 0x00 (0000ms, 0769ms total)
T2F58 010:622 JLINK_ReadMem (0x40023874, 0x0004 Bytes, ...) -- CPU is running -- CPU_ReadMem(4 bytes @ 0x40023874) - Data: 00 00 00 1E  returns 0x00 (0001ms, 0770ms total)
T2F58 010:623 JLINK_ReadMem (0x40023880, 0x000C Bytes, ...) -- CPU is running -- CPU_ReadMem(12 bytes @ 0x40023880) - Data: 00 00 00 00 00 30 00 24 00 30 00 24  returns 0x00 (0000ms, 0770ms total)
T2F58 010:623 JLINK_ReadMem (0x4002388C, 0x0004 Bytes, ...) -- CPU is running -- CPU_ReadMem(4 bytes @ 0x4002388C) - Data: 00 00 00 00  returns 0x00 (0001ms, 0771ms total)
